
**** 05/01/15 22:09:25 ********* PSpice 9.2 (Mar 2000) ******** ID# 0 ********

 ** Profile: "SCHEMATIC1-t"  [ F:\Users\ROOT\Documents\orcad\elecdigital\problem1\p1-schematic1-t.sim ] 


 ****     CIRCUIT DESCRIPTION


******************************************************************************




** Creating circuit file "p1-schematic1-t.sim.cir" 
** WARNING: THIS AUTOMATICALLY GENERATED FILE MAY BE OVERWRITTEN BY SUBSEQUENT SIMULATIONS

*Libraries: 
* Local Libraries :
* From [PSPICE NETLIST] section of F:\Program Files\Orcad\PSpice\PSpice.ini file:
.lib "nom.lib" 

*Analysis directives: 
.TRAN  0 1s 0 
.PROBE V(*) I(*) W(*) D(*) NOISE(*) 
.INC ".\p1-SCHEMATIC1.net" 



**** INCLUDING p1-SCHEMATIC1.net ****
* source P1
X_M1         N00305 N00175 N00095 PHP125/PLP
V_V1         N00305 0 10Vdc
C_C1         0 N00175  100p  
X_M5         N012302 N00095 N01352 PHP125/PLP
C_C2         0 N00095  100p  
X_M6         N01352 N00095 0 PHN110/PLP
X_M3         N00095 N00175 0 PHN110/PLP
C_C3         0 N01352  100p  
X_M7         N00175 N01352 0 PHN110/PLP
V_V3         N011962 0 10Vdc
V_V2         N012302 0 10Vdc
X_M4         N011962 N01352 N00175 PHP125/PLP

**** RESUMING p1-schematic1-t.sim.cir ****
.END

**** 05/01/15 22:09:25 ********* PSpice 9.2 (Mar 2000) ******** ID# 0 ********

 ** Profile: "SCHEMATIC1-t"  [ F:\Users\ROOT\Documents\orcad\elecdigital\problem1\p1-schematic1-t.sim ] 


 ****     Diode MODEL PARAMETERS


******************************************************************************




               X_M1.Dbody      X_M5.Dbody      X_M6.Dbody      X_M3.Dbody      
          IS    6.159000E-12    6.159000E-12  258.000000E-15  258.000000E-15 
           N    1.225           1.225           1.002           1.002        
         IKF   13.37           13.37           10.49           10.49         
          BV   30              30              30              30            
         IBV   10.000000E-06   10.000000E-06   10.000000E-06   10.000000E-06 
          RS     .9657           .9657           .1773           .1773       
          TT  173.100000E-09  173.100000E-09   80.000000E-09   80.000000E-09 
         CJO  580.800000E-12  580.800000E-12  623.500000E-12  623.500000E-12 
          VJ     .6998           .6998           .7055           .7055       
           M     .4549           .4549           .4718           .4718       


               X_M7.Dbody      X_M4.Dbody      
          IS  258.000000E-15    6.159000E-12 
           N    1.002           1.225        
         IKF   10.49           13.37         
          BV   30              30            
         IBV   10.000000E-06   10.000000E-06 
          RS     .1773           .9657       
          TT   80.000000E-09  173.100000E-09 
         CJO  623.500000E-12  580.800000E-12 
          VJ     .7055           .6998       
           M     .4718           .4549       


**** 05/01/15 22:09:25 ********* PSpice 9.2 (Mar 2000) ******** ID# 0 ********

 ** Profile: "SCHEMATIC1-t"  [ F:\Users\ROOT\Documents\orcad\elecdigital\problem1\p1-schematic1-t.sim ] 


 ****     MOSFET MODEL PARAMETERS


******************************************************************************




               X_M1.MOST1      X_M1.MOST2      X_M5.MOST1      X_M5.MOST2      
               PMOS            PMOS            PMOS            PMOS            
       LEVEL    3               1               3               1            
           L    2.000000E-06    2.000000E-06    2.000000E-06    2.000000E-06 
           W     .42             .42             .42             .42         
         VTO   -1.8             3.92           -1.8             3.92         
          KP   10.330000E-06   10.330000E-06   10.330000E-06   10.330000E-06 
       GAMMA    0               0               0               0            
         PHI     .6              .6              .6              .6          
      LAMBDA    0               0               0               0            
          RD     .1735                           .1735                       
          RS     .02             .02             .02             .02         
          IS   10.000000E-15   10.000000E-15   10.000000E-15   10.000000E-15 
          JS    0               0               0               0            
          PB     .8              .8              .8              .8          
        PBSW     .8              .8              .8              .8          
          CJ    0               0               0               0            
        CJSW    0               0               0               0            
        CGSO    0               0               0               0            
        CGDO    0               0               0               0            
        CGBO    0               0               0               0            
         TOX  100.000000E-09    0             100.000000E-09    0            
          XJ    0               0               0               0            
       UCRIT   10.000000E+03   10.000000E+03   10.000000E+03   10.000000E+03 
      DIOMOD    1               1               1               1            
         VFB    0               0               0               0            
        LETA    0               0               0               0            
        WETA    0               0               0               0            
          U0    0               0               0               0            
        TEMP    0               0               0               0            
         VDD    0               0               0               0            
       XPART    0               0               0               0            


               X_M6.MOST1      X_M6.MOST2      X_M3.MOST1      X_M3.MOST2      
               NMOS            NMOS            NMOS            NMOS            
       LEVEL    3               1               3               1            
           L    2.000000E-06    2.000000E-06    2.000000E-06    2.000000E-06 
           W     .54             .54             .54             .54         
         VTO    2.2            -3.9             2.2            -3.9          
          KP   20.580000E-06   20.580000E-06   20.580000E-06   20.580000E-06 
       GAMMA    0               0               0               0            
         PHI     .6              .6              .6              .6          
      LAMBDA    0               0               0               0            
          RD     .056                            .056                        
          RS     .02             .02             .02             .02         
          IS   10.000000E-15   10.000000E-15   10.000000E-15   10.000000E-15 
          JS    0               0               0               0            
          PB     .8              .8              .8              .8          
        PBSW     .8              .8              .8              .8          
          CJ    0               0               0               0            
        CJSW    0               0               0               0            
        CGSO    0               0               0               0            
        CGDO    0               0               0               0            
        CGBO    0               0               0               0            
         TOX  100.000000E-09    0             100.000000E-09    0            
          XJ    0               0               0               0            
       UCRIT   10.000000E+03   10.000000E+03   10.000000E+03   10.000000E+03 
      DIOMOD    1               1               1               1            
         VFB    0               0               0               0            
        LETA    0               0               0               0            
        WETA    0               0               0               0            
          U0    0               0               0               0            
        TEMP    0               0               0               0            
         VDD    0               0               0               0            
       XPART    0               0               0               0            


               X_M7.MOST1      X_M7.MOST2      X_M4.MOST1      X_M4.MOST2      
               NMOS            NMOS            PMOS            PMOS            
       LEVEL    3               1               3               1            
           L    2.000000E-06    2.000000E-06    2.000000E-06    2.000000E-06 
           W     .54             .54             .42             .42         
         VTO    2.2            -3.9            -1.8             3.92         
          KP   20.580000E-06   20.580000E-06   10.330000E-06   10.330000E-06 
       GAMMA    0               0               0               0            
         PHI     .6              .6              .6              .6          
      LAMBDA    0               0               0               0            
          RD     .056                            .1735                       
          RS     .02             .02             .02             .02         
          IS   10.000000E-15   10.000000E-15   10.000000E-15   10.000000E-15 
          JS    0               0               0               0            
          PB     .8              .8              .8              .8          
        PBSW     .8              .8              .8              .8          
          CJ    0               0               0               0            
        CJSW    0               0               0               0            
        CGSO    0               0               0               0            
        CGDO    0               0               0               0            
        CGBO    0               0               0               0            
         TOX  100.000000E-09    0             100.000000E-09    0            
          XJ    0               0               0               0            
       UCRIT   10.000000E+03   10.000000E+03   10.000000E+03   10.000000E+03 
      DIOMOD    1               1               1               1            
         VFB    0               0               0               0            
        LETA    0               0               0               0            
        WETA    0               0               0               0            
          U0    0               0               0               0            
        TEMP    0               0               0               0            
         VDD    0               0               0               0            
       XPART    0               0               0               0            


**** 05/01/15 22:09:25 ********* PSpice 9.2 (Mar 2000) ******** ID# 0 ********

 ** Profile: "SCHEMATIC1-t"  [ F:\Users\ROOT\Documents\orcad\elecdigital\problem1\p1-schematic1-t.sim ] 


 ****     INITIAL TRANSIENT SOLUTION       TEMPERATURE =   27.000 DEG C


******************************************************************************



 NODE   VOLTAGE     NODE   VOLTAGE     NODE   VOLTAGE     NODE   VOLTAGE


(N00095)    8.0508 (N00175)    8.0508 (N00305)   10.0000 (N01352)    8.0508     

(X_M1.4)    8.8856 (X_M3.4)    8.0508 (X_M4.4)    8.8856 (X_M5.4)    8.8856     

(X_M6.4)    8.0508 (X_M7.4)    8.0508 (N011962)   10.0000                       

(N012302)   10.0000                   




    VOLTAGE SOURCE CURRENTS
    NAME         CURRENT

    V_V1        -5.804E+01
    V_V3        -5.804E+01
    V_V2        -5.804E+01

    TOTAL POWER DISSIPATION   1.74E+03  WATTS



          JOB CONCLUDED

          TOTAL JOB TIME             .06
